<Qucs Dataset 0.0.19>
<indep time 200>
  +0.00000000000000000000e+000
  +2.51256281407035180939e-005
  +5.02512562814070361879e-005
  +7.53768844221105576700e-005
  +1.00502512562814072376e-004
  +1.25628140703517600634e-004
  +1.50753768844221115340e-004
  +1.75879396984924630046e-004
  +2.01005025125628144752e-004
  +2.26130653266331659457e-004
  +2.51256281407035201268e-004
  +2.76381909547738688869e-004
  +3.01507537688442230680e-004
  +3.26633165829145718281e-004
  +3.51758793969849260092e-004
  +3.76884422110552747692e-004
  +4.02010050251256289503e-004
  +4.27135678391959831314e-004
  +4.52261306532663318915e-004
  +4.77386934673366860726e-004
  +5.02512562814070402537e-004
  +5.27638190954773890137e-004
  +5.52763819095477377738e-004
  +5.77889447236180865339e-004
  +6.03015075376884461360e-004
  +6.28140703517587948961e-004
  +6.53266331658291436561e-004
  +6.78391959798995032582e-004
  +7.03517587939698520183e-004
  +7.28643216080402007784e-004
  +7.53768844221105495385e-004
  +7.78894472361809091406e-004
  +8.04020100502512579006e-004
  +8.29145728643216066607e-004
  +8.54271356783919662628e-004
  +8.79396984924623150229e-004
  +9.04522613065326637830e-004
  +9.29648241206030125430e-004
  +9.54773869346733721451e-004
  +9.79899497487437100632e-004
  +1.00502512562814080507e-003
  +1.03015075376884429267e-003
  +1.05527638190954778027e-003
  +1.08040201005025126788e-003
  +1.10552763819095475548e-003
  +1.13065326633165824308e-003
  +1.15577889447236173068e-003
  +1.18090452261306543512e-003
  +1.20603015075376892272e-003
  +1.23115577889447241032e-003
  +1.25628140703517589792e-003
  +1.28140703517587938552e-003
  +1.30653266331658287312e-003
  +1.33165829145728636072e-003
  +1.35678391959799006516e-003
  +1.38190954773869355277e-003
  +1.40703517587939704037e-003
  +1.43216080402010052797e-003
  +1.45728643216080401557e-003
  +1.48241206030150750317e-003
  +1.50753768844221099077e-003
  +1.53266331658291469521e-003
  +1.55778894472361818281e-003
  +1.58291457286432167041e-003
  +1.60804020100502515801e-003
  +1.63316582914572864561e-003
  +1.65829145728643213321e-003
  +1.68341708542713562081e-003
  +1.70854271356783932526e-003
  +1.73366834170854281286e-003
  +1.75879396984924630046e-003
  +1.78391959798994978806e-003
  +1.80904522613065327566e-003
  +1.83417085427135676326e-003
  +1.85929648241206025086e-003
  +1.88442211055276395530e-003
  +1.90954773869346744290e-003
  +1.93467336683417093050e-003
  +1.95979899497487420126e-003
  +1.98492462311557812255e-003
  +2.01005025125628161015e-003
  +2.03517587939698509775e-003
  +2.06030150753768858535e-003
  +2.08542713567839207295e-003
  +2.11055276381909556055e-003
  +2.13567839195979904815e-003
  +2.16080402010050253575e-003
  +2.18592964824120602335e-003
  +2.21105527638190951095e-003
  +2.23618090452261299855e-003
  +2.26130653266331648615e-003
  +2.28643216080401997375e-003
  +2.31155778894472346136e-003
  +2.33668341708542738264e-003
  +2.36180904522613087024e-003
  +2.38693467336683435784e-003
  +2.41206030150753784544e-003
  +2.43718592964824133304e-003
  +2.46231155778894482064e-003
  +2.48743718592964830824e-003
  +2.51256281407035179584e-003
  +2.53768844221105528344e-003
  +2.56281407035175877104e-003
  +2.58793969849246225864e-003
  +2.61306532663316574625e-003
  +2.63819095477386923385e-003
  +2.66331658291457272145e-003
  +2.68844221105527664273e-003
  +2.71356783919598013033e-003
  +2.73869346733668361793e-003
  +2.76381909547738710553e-003
  +2.78894472361809059313e-003
  +2.81407035175879408073e-003
  +2.83919597989949756833e-003
  +2.86432160804020105593e-003
  +2.88944723618090454353e-003
  +2.91457286432160803114e-003
  +2.93969849246231151874e-003
  +2.96482412060301500634e-003
  +2.98994974874371849394e-003
  +3.01507537688442198154e-003
  +3.04020100502512590282e-003
  +3.06532663316582939042e-003
  +3.09045226130653287802e-003
  +3.11557788944723636562e-003
  +3.14070351758793985322e-003
  +3.16582914572864334082e-003
  +3.19095477386934682842e-003
  +3.21608040201005031603e-003
  +3.24120603015075380363e-003
  +3.26633165829145729123e-003
  +3.29145728643216077883e-003
  +3.31658291457286426643e-003
  +3.34170854271356775403e-003
  +3.36683417085427124163e-003
  +3.39195979899497472923e-003
  +3.41708542713567865051e-003
  +3.44221105527638213811e-003
  +3.46733668341708562571e-003
  +3.49246231155778911331e-003
  +3.51758793969849260092e-003
  +3.54271356783919608852e-003
  +3.56783919597989957612e-003
  +3.59296482412060306372e-003
  +3.61809045226130655132e-003
  +3.64321608040201003892e-003
  +3.66834170854271352652e-003
  +3.69346733668341701412e-003
  +3.71859296482412050172e-003
  +3.74371859296482398932e-003
  +3.76884422110552791060e-003
  +3.79396984924623139820e-003
  +3.81909547738693488581e-003
  +3.84422110552763837341e-003
  +3.86934673366834186101e-003
  +3.89447236180904534861e-003
  +3.91959798994974840253e-003
  +3.94472361809045275749e-003
  +3.96984924623115624509e-003
  +3.99497487437185973269e-003
  +4.02010050251256322029e-003
  +4.04522613065326670789e-003
  +4.07035175879397019549e-003
  +4.09547738693467368309e-003
  +4.12060301507537717070e-003
  +4.14572864321608065830e-003
  +4.17085427135678414590e-003
  +4.19597989949748763350e-003
  +4.22110552763819112110e-003
  +4.24623115577889460870e-003
  +4.27135678391959809630e-003
  +4.29648241206030158390e-003
  +4.32160804020100507150e-003
  +4.34673366834170855910e-003
  +4.37185929648241204670e-003
  +4.39698492462311553430e-003
  +4.42211055276381902190e-003
  +4.44723618090452250950e-003
  +4.47236180904522599711e-003
  +4.49748743718592948471e-003
  +4.52261306532663297231e-003
  +4.54773869346733645991e-003
  +4.57286432160803994751e-003
  +4.59798994974874343511e-003
  +4.62311557788944692271e-003
  +4.64824120603015127767e-003
  +4.67336683417085476527e-003
  +4.69849246231155825287e-003
  +4.72361809045226174048e-003
  +4.74874371859296522808e-003
  +4.77386934673366871568e-003
  +4.79899497487437220328e-003
  +4.82412060301507569088e-003
  +4.84924623115577917848e-003
  +4.87437185929648266608e-003
  +4.89949748743718615368e-003
  +4.92462311557788964128e-003
  +4.94974874371859312888e-003
  +4.97487437185929661648e-003
  +5.00000000000000010408e-003
</indep>
<dep VCC.It time>
  -3.97103793301957665982e-006
  -4.33905419895977499103e-005
  -4.33906328635722058750e-005
  -4.33907357087633704690e-005
  -4.33907056566347246293e-005
  -4.33907736391776324204e-005
  -4.33907297405707148932e-005
  -4.33907892923955713807e-005
  -4.33907416139474270554e-005
  -4.33907974912842286778e-005
  -4.33907485646251381284e-005
  -4.33908022661947236163e-005
  -4.33907530092467023670e-005
  -4.33908051537630344336e-005
  -4.33907559690673369371e-005
  -4.33908068551971804589e-005
  -4.33907579371717950969e-005
  -4.33908077219301692787e-005
  -4.33907591650303420846e-005
  -4.33908079314557627686e-005
  -4.33907597732751198713e-005
  -4.33908075578275036319e-005
  -4.33907597958200605035e-005
  -4.33908065972519107686e-005
  -4.33907591911520927890e-005
  -4.33908049668586958563e-005
  -4.33907578283888376827e-005
  -4.33908024758322270992e-005
  -4.33907554386576364011e-005
  -4.33907987482237477795e-005
  -4.33907514937631968066e-005
  -4.33907930295589008298e-005
  -4.33907448888547092624e-005
  -4.33907836439734591284e-005
  -4.33907329611098795618e-005
  -4.33907660871551959219e-005
  -4.33907074024762805329e-005
  -4.33907229384468550609e-005
  -4.33906229138735074699e-005
  -4.33904624302087319507e-005
  -1.98408409090933081672e-012
  -1.98408409090369968776e-012
  -1.98408409090357932652e-012
  -1.98408409090200655245e-012
  -1.98408409090200049400e-012
  -1.98408409090199807062e-012
  -1.98408409090199847451e-012
  -1.98408409090199887841e-012
  -1.98408409090200130179e-012
  -1.98408409090200291738e-012
  -1.98408409090200453296e-012
  -1.98408409090200695634e-012
  -1.98408409090200897583e-012
  -1.98408409090201099531e-012
  -1.98408409090201341869e-012
  -1.98408409090201543818e-012
  -1.98408409090201826545e-012
  -1.98408409090202028494e-012
  -1.98408409090202270832e-012
  -1.98408409090202472780e-012
  -1.98408409090202715118e-012
  -1.98408409090202957456e-012
  -1.98408409090203199795e-012
  -1.98408409090203442133e-012
  -1.98408409090203684471e-012
  -1.98408409090203886419e-012
  -1.98408409090204088367e-012
  -1.98408409090204290316e-012
  -1.98408409090204492264e-012
  -1.98408409090204694213e-012
  -1.98408409090204896161e-012
  -1.98408409090205098109e-012
  -1.98408409090205219278e-012
  -1.98408409090205340447e-012
  -1.98408409090205340447e-012
  -1.98408409090205219278e-012
  -1.98408409090204734602e-012
  -1.98408409090203361353e-012
  -1.98408409090197989526e-012
  -1.98408409090150450875e-012
  -4.33901015902973821400e-005
  -4.33906223922205284103e-005
  -4.33907089518361911923e-005
  -4.33907443730149850825e-005
  -4.33907635191657889179e-005
  -4.33907754279845889840e-005
  -4.33907834876371572598e-005
  -4.33907892539129469043e-005
  -4.33907935408302781696e-005
  -4.33907968150916198273e-005
  -4.33907993629462269709e-005
  -4.33908013692045862846e-005
  -4.33908029579910346080e-005
  -4.33908042152147908617e-005
  -4.33908052016380955539e-005
  -4.33908059608045475869e-005
  -4.33908065240085449150e-005
  -4.33908069134788138303e-005
  -4.33908071444331821446e-005
  -4.33908072263828337449e-005
  -4.33908071639035287036e-005
  -4.33908069569946707096e-005
  -4.33908066010792731865e-005
  -4.33908060866449257439e-005
  -4.33908053984724656461e-005
  -4.33908045143317368090e-005
  -4.33908034029267081991e-005
  -4.33908020207119377704e-005
  -4.33908003069228743087e-005
  -4.33907981756472970088e-005
  -4.33907955027567558389e-005
  -4.33907921034345163999e-005
  -4.33907876914214912399e-005
  -4.33907817999977152745e-005
  -4.33907736151108175274e-005
  -4.33907615808961350900e-005
  -4.33907423089906050693e-005
  -4.33907067610281906847e-005
  -4.33906200699971618460e-005
  -4.33900986703185346659e-005
  -1.98408409090401109218e-012
  -1.98408409090345977307e-012
  -1.98408409090217336182e-012
  -1.98408409090337980151e-012
  -1.98408409090215962933e-012
  -1.98408409090336001057e-012
  -1.98408409090216366830e-012
  -1.98408409090334748977e-012
  -1.98408409090217053454e-012
  -1.98408409090333658456e-012
  -1.98408409090217861248e-012
  -1.98408409090332689103e-012
  -1.98408409090218628652e-012
  -1.98408409090331800530e-012
  -1.98408409090219476835e-012
  -1.98408409090330831178e-012
  -1.98408409090220325018e-012
  -1.98408409090329982995e-012
  -1.98408409090221132812e-012
  -1.98408409090329134812e-012
  -1.98408409090221940605e-012
  -1.98408409090328327018e-012
  -1.98408409090222788789e-012
  -1.98408409090327438445e-012
  -1.98408409090223515803e-012
  -1.98408409090326590262e-012
  -1.98408409090224283207e-012
  -1.98408409090325742079e-012
  -1.98408409090225010221e-012
  -1.98408409090324893895e-012
  -1.98408409090225696845e-012
  -1.98408409090324005322e-012
  -1.98408409090226302691e-012
  -1.98408409090322995580e-012
  -1.98408409090226585418e-012
  -1.98408409090321541552e-012
  -1.98408409090225979573e-012
  -1.98408409090317381415e-012
  -1.98408409090212974097e-012
  -1.98408409089878587950e-012
  -4.33904163829798968305e-005
  -4.33906689754844741434e-005
  -4.33907265564717207671e-005
  -4.33907536318376975100e-005
  -4.33907692638028005534e-005
  -4.33907793672443146916e-005
  -4.33907863767448183216e-005
  -4.33907914774569005746e-005
  -4.33907953149086599281e-005
  -4.33907982702138296190e-005
  -4.33908005823638873513e-005
  -4.33908024083106772244e-005
  -4.33908038548545235734e-005
  -4.33908049966314228376e-005
  -4.33908058867652214846e-005
  -4.33908065634227972131e-005
  -4.33908070539643984215e-005
  -4.33908073776161957872e-005
  -4.33908075471903283550e-005
  -4.33908075701562240332e-005
  -4.33908074492366803952e-005
  -4.33908071826201785699e-005
  -4.33908067638197946577e-005
  -4.33908061811593556635e-005
  -4.33908054168075644390e-005
  -4.33908044452069907343e-005
  -4.33908032306250956598e-005
  -4.33908017233568677872e-005
  -4.33907998537536948808e-005
  -4.33907975225834174502e-005
  -4.33907945848889775283e-005
  -4.33907908216755563622e-005
  -4.33907858872698958680e-005
  -4.33907792039828611817e-005
  -4.33907697303128098870e-005
  -4.33907553813944551167e-005
  -4.33907312902728675209e-005
  -4.33906828528464344496e-005
  -4.33905370413651913478e-005
  -3.96886308280540714210e-006
</dep>
<dep V1.It time>
  +0.00000000000000000000e+000
  +0.00000000000000000000e+000
  +0.00000000000000000000e+000
  +0.00000000000000000000e+000
  +0.00000000000000000000e+000
  +0.00000000000000000000e+000
  +0.00000000000000000000e+000
  +0.00000000000000000000e+000
  +0.00000000000000000000e+000
  +0.00000000000000000000e+000
  +0.00000000000000000000e+000
  +0.00000000000000000000e+000
  +0.00000000000000000000e+000
  +0.00000000000000000000e+000
  +0.00000000000000000000e+000
  +0.00000000000000000000e+000
  +0.00000000000000000000e+000
  +0.00000000000000000000e+000
  +0.00000000000000000000e+000
  +0.00000000000000000000e+000
  +0.00000000000000000000e+000
  +0.00000000000000000000e+000
  +0.00000000000000000000e+000
  +0.00000000000000000000e+000
  +0.00000000000000000000e+000
  +0.00000000000000000000e+000
  +0.00000000000000000000e+000
  +0.00000000000000000000e+000
  +0.00000000000000000000e+000
  +0.00000000000000000000e+000
  +0.00000000000000000000e+000
  +0.00000000000000000000e+000
  +0.00000000000000000000e+000
  +0.00000000000000000000e+000
  +0.00000000000000000000e+000
  +0.00000000000000000000e+000
  +0.00000000000000000000e+000
  +0.00000000000000000000e+000
  +0.00000000000000000000e+000
  +0.00000000000000000000e+000
  +0.00000000000000000000e+000
  +0.00000000000000000000e+000
  +0.00000000000000000000e+000
  +0.00000000000000000000e+000
  +0.00000000000000000000e+000
  +0.00000000000000000000e+000
  +0.00000000000000000000e+000
  +0.00000000000000000000e+000
  +0.00000000000000000000e+000
  +0.00000000000000000000e+000
  +0.00000000000000000000e+000
  +0.00000000000000000000e+000
  +0.00000000000000000000e+000
  +0.00000000000000000000e+000
  +0.00000000000000000000e+000
  +0.00000000000000000000e+000
  +0.00000000000000000000e+000
  +0.00000000000000000000e+000
  +0.00000000000000000000e+000
  +0.00000000000000000000e+000
  +0.00000000000000000000e+000
  +0.00000000000000000000e+000
  +0.00000000000000000000e+000
  +0.00000000000000000000e+000
  +0.00000000000000000000e+000
  +0.00000000000000000000e+000
  +0.00000000000000000000e+000
  +0.00000000000000000000e+000
  +0.00000000000000000000e+000
  +0.00000000000000000000e+000
  +0.00000000000000000000e+000
  +0.00000000000000000000e+000
  +0.00000000000000000000e+000
  +0.00000000000000000000e+000
  +0.00000000000000000000e+000
  +0.00000000000000000000e+000
  +0.00000000000000000000e+000
  +0.00000000000000000000e+000
  +0.00000000000000000000e+000
  +0.00000000000000000000e+000
  +0.00000000000000000000e+000
  +0.00000000000000000000e+000
  +0.00000000000000000000e+000
  +0.00000000000000000000e+000
  +0.00000000000000000000e+000
  +0.00000000000000000000e+000
  +0.00000000000000000000e+000
  +0.00000000000000000000e+000
  +0.00000000000000000000e+000
  +0.00000000000000000000e+000
  +0.00000000000000000000e+000
  +0.00000000000000000000e+000
  +0.00000000000000000000e+000
  +0.00000000000000000000e+000
  +0.00000000000000000000e+000
  +0.00000000000000000000e+000
  +0.00000000000000000000e+000
  +0.00000000000000000000e+000
  +0.00000000000000000000e+000
  +0.00000000000000000000e+000
  +0.00000000000000000000e+000
  +0.00000000000000000000e+000
  +0.00000000000000000000e+000
  +0.00000000000000000000e+000
  +0.00000000000000000000e+000
  +0.00000000000000000000e+000
  +0.00000000000000000000e+000
  +0.00000000000000000000e+000
  +0.00000000000000000000e+000
  +0.00000000000000000000e+000
  +0.00000000000000000000e+000
  +0.00000000000000000000e+000
  +0.00000000000000000000e+000
  +0.00000000000000000000e+000
  +0.00000000000000000000e+000
  +0.00000000000000000000e+000
  +0.00000000000000000000e+000
  +0.00000000000000000000e+000
  +0.00000000000000000000e+000
  +0.00000000000000000000e+000
  +0.00000000000000000000e+000
  +0.00000000000000000000e+000
  +0.00000000000000000000e+000
  +0.00000000000000000000e+000
  +0.00000000000000000000e+000
  +0.00000000000000000000e+000
  +0.00000000000000000000e+000
  +0.00000000000000000000e+000
  +0.00000000000000000000e+000
  +0.00000000000000000000e+000
  +0.00000000000000000000e+000
  +0.00000000000000000000e+000
  +0.00000000000000000000e+000
  +0.00000000000000000000e+000
  +0.00000000000000000000e+000
  +0.00000000000000000000e+000
  +0.00000000000000000000e+000
  +0.00000000000000000000e+000
  +0.00000000000000000000e+000
  +0.00000000000000000000e+000
  +0.00000000000000000000e+000
  +0.00000000000000000000e+000
  +0.00000000000000000000e+000
  +0.00000000000000000000e+000
  +0.00000000000000000000e+000
  +0.00000000000000000000e+000
  +0.00000000000000000000e+000
  +0.00000000000000000000e+000
  +0.00000000000000000000e+000
  +0.00000000000000000000e+000
  +0.00000000000000000000e+000
  +0.00000000000000000000e+000
  +0.00000000000000000000e+000
  +0.00000000000000000000e+000
  +0.00000000000000000000e+000
  +0.00000000000000000000e+000
  +0.00000000000000000000e+000
  +0.00000000000000000000e+000
  +0.00000000000000000000e+000
  +0.00000000000000000000e+000
  +0.00000000000000000000e+000
  +0.00000000000000000000e+000
  +0.00000000000000000000e+000
  +0.00000000000000000000e+000
  +0.00000000000000000000e+000
  +0.00000000000000000000e+000
  +0.00000000000000000000e+000
  +0.00000000000000000000e+000
  +0.00000000000000000000e+000
  +0.00000000000000000000e+000
  +0.00000000000000000000e+000
  +0.00000000000000000000e+000
  +0.00000000000000000000e+000
  +0.00000000000000000000e+000
  +0.00000000000000000000e+000
  +0.00000000000000000000e+000
  +0.00000000000000000000e+000
  +0.00000000000000000000e+000
  +0.00000000000000000000e+000
  +0.00000000000000000000e+000
  +0.00000000000000000000e+000
  +0.00000000000000000000e+000
  +0.00000000000000000000e+000
  +0.00000000000000000000e+000
  +0.00000000000000000000e+000
  +0.00000000000000000000e+000
  +0.00000000000000000000e+000
  +0.00000000000000000000e+000
  +0.00000000000000000000e+000
  +0.00000000000000000000e+000
  +0.00000000000000000000e+000
  +0.00000000000000000000e+000
  +0.00000000000000000000e+000
  +0.00000000000000000000e+000
  +0.00000000000000000000e+000
  +0.00000000000000000000e+000
  +0.00000000000000000000e+000
  +0.00000000000000000000e+000
  +0.00000000000000000000e+000
  +0.00000000000000000000e+000
</dep>
<dep V2.It time>
  +1.27294762437449998095e-013
  -2.78902537887003522848e-009
  +2.78902556325601481742e-009
  -2.78902584470256635890e-009
  +2.78902609053545178337e-009
  -2.78902635192976760725e-009
  +2.78902660086438800930e-009
  -2.78902685514172993752e-009
  +2.78902710251281313213e-009
  -2.78902735190229270839e-009
  +2.78902759660796215493e-009
  -2.78902784183069351697e-009
  +2.78902808350547145590e-009
  -2.78902832488334325371e-009
  +2.78902856339315901057e-009
  -2.78902880110391250544e-009
  +2.78902903640706707838e-009
  -2.78902927056465508510e-009
  +2.78902950266328632241e-009
  -2.78902973334817200787e-009
  +2.78902996226901231899e-009
  -2.78903018954039534528e-009
  +2.78903041532733493352e-009
  -2.78903063922711158507e-009
  +2.78903086194012807588e-009
  -2.78903108249127122624e-009
  +2.78903130221102796423e-009
  -2.78903151940930906613e-009
  +2.78903173625058232437e-009
  -2.78903195004349443406e-009
  +2.78903216418844344551e-009
  -2.78903237442158048035e-009
  +2.78903258620928064016e-009
  -2.78903279246969046373e-009
  +2.78903300268779100939e-009
  -2.78903320371484209634e-009
  +2.78903341493090213665e-009
  -2.78903360506203613234e-009
  +2.78903383426953547115e-009
  -2.78903391250984597271e-009
  +8.12726740080645125574e-009
